
T1BA4 000:364 SEGGER J-Link V4.98e Log File (0000ms, 0272ms total)
T1BA4 000:364 DLL Compiled: May  5 2015 11:00:52 (0000ms, 0272ms total)
T1BA4 000:364 Logging started @ 2016-11-02 17:06 (0000ms, 0272ms total)
T1BA4 000:364 JLINK_SetWarnOutHandler(...) (0000ms, 0272ms total)
T1BA4 000:364 JLINK_OpenEx(...)
Firmware: J-Link ARM V8 compiled Jan 31 2018 18:34:52
Hardware: V8.00
S/N: 20080643
Feature(s): RDI,FlashDL,FlashBP,JFlash,GDBFull  returns O.K. (0274ms, 0546ms total)
T1BA4 000:638 JLINK_SetErrorOutHandler(...) (0000ms, 0546ms total)
T1BA4 000:638 JLINK_ExecCommand("ProjectFile = "F:\HauptOrdner\dasLaaboratorium\STM_AutoPilot\STM32\STMGenerated\AutoPilot\MDK-ARM\JLinkSettings.ini"", ...)Device "UNSPECIFIED" selected.  returns 0x00 (0002ms, 0548ms total)
T1BA4 000:640 JLINK_ExecCommand("Device = STM32F405RG", ...)Device "STM32F405RG" selected.  returns 0x00 (0003ms, 0551ms total)
T1BA4 000:643 JLINK_ExecCommand("DisableConnectionTimeout", ...)  returns 0x01 (0000ms, 0551ms total)
T1BA4 000:643 JLINK_GetHardwareVersion()  returns 0x13880 (0000ms, 0551ms total)
T1BA4 000:643 JLINK_GetDLLVersion()  returns 49805 (0000ms, 0551ms total)
T1BA4 000:643 JLINK_GetFirmwareString(...) (0000ms, 0551ms total)
T1BA4 000:644 JLINK_GetDLLVersion()  returns 49805 (0000ms, 0551ms total)
T1BA4 000:644 JLINK_GetCompileDateTime() (0000ms, 0551ms total)
T1BA4 000:644 JLINK_GetFirmwareString(...) (0000ms, 0551ms total)
T1BA4 000:645 JLINK_GetHardwareVersion()  returns 0x13880 (0000ms, 0551ms total)
T1BA4 000:647 JLINK_TIF_Select(JLINKARM_TIF_SWD)  returns 0x00 (0003ms, 0554ms total)
T1BA4 000:650 JLINK_SetSpeed(5000) (0000ms, 0554ms total)
T1BA4 000:650 JLINK_GetId() >0x108 TIF>Found SWD-DP with ID 0x2BA01477 >0x0D TIF> >0x28 TIF> >0x0D TIF> >0x28 TIF> >0x0D TIF> >0x21 TIF> >0x0D TIF> >0x28 TIF> >0x0D TIF> >0x28 TIF> >0x0D TIF> >0x28 TIF> >0x0D TIF> >0x21 TIF> >0x0D TIF> >0x21 TIF> >0x0D TIF> >0x28 TIF> >0x0D TIF> >0x21 TIF> >0x0D TIF> >0x21 TIF> >0x0D TIF> >0x28 TIF> >0x0D TIF> >0x21 TIF> >0x0D TIF> >0x21 TIF> >0x108 TIF>Found SWD-DP with ID 0x2BA01477 >0x0D TIF> >0x21 TIF> >0x0D TIF> >0x28 TIF> >0x0D TIF> >0x28 TIF> >0x0D TIF> >0x21 TIF>
 >0x0D TIF> >0x28 TIF> >0x0D TIF> >0x21 TIF> >0x0D TIF> >0x21 TIF> >0x0D TIF> >0x21 TIF> >0x0D TIF> >0x28 TIF> >0x0D TIF> >0x21 TIF> >0x0D TIF> >0x28 TIF> >0x0D TIF> >0x28 TIF> >0x0D TIF> >0x21 TIF> >0x0D TIF> >0x28 TIF> >0x0D TIF> >0x28 TIF> >0x0D TIF> >0x28 TIF> >0x0D TIF> >0x21 TIF> >0x0D TIF> >0x21 TIF> >0x0D TIF> >0x28 TIF> >0x0D TIF> >0x21 TIF> >0x0D TIF> >0x21 TIF>Found Cortex-M4 r0p1, Little endian. >0x0D TIF> >0x28 TIF> -- CPU_WriteMem(4 bytes @ 0xE0002000) -- CPU_ReadMem(4 bytes @ 0xE000EDF0)
 -- CPU_ReadMem(4 bytes @ 0xE0002000)FPUnit: 6 code (BP) slots and 2 literal slots -- CPU_ReadMem(4 bytes @ 0xE000EDFC) -- CPU_ReadMem(4 bytes @ 0xE0001000) -- CPU_WriteMem(4 bytes @ 0xE0001000) -- CPU_ReadMem(4 bytes @ 0xE000ED88) -- CPU_WriteMem(4 bytes @ 0xE000ED88) -- CPU_ReadMem(4 bytes @ 0xE000ED88) -- CPU_WriteMem(4 bytes @ 0xE000ED88)CoreSight components:ROMTbl 0 @ E00FF000 -- CPU_ReadMem(16 bytes @ 0xE00FF000) -- CPU_ReadMem(16 bytes @ 0xE000EFF0) -- CPU_ReadMem(16 bytes @ 0xE000EFE0)
ROMTbl 0 [0]: FFF0F000, CID: B105E00D, PID: 000BB00C SCS -- CPU_ReadMem(16 bytes @ 0xE0001FF0) -- CPU_ReadMem(16 bytes @ 0xE0001FE0)ROMTbl 0 [1]: FFF02000, CID: B105E00D, PID: 003BB002 DWT -- CPU_ReadMem(16 bytes @ 0xE0002FF0) -- CPU_ReadMem(16 bytes @ 0xE0002FE0)ROMTbl 0 [2]: FFF03000, CID: B105E00D, PID: 002BB003 FPB -- CPU_ReadMem(16 bytes @ 0xE0000FF0) -- CPU_ReadMem(16 bytes @ 0xE0000FE0)ROMTbl 0 [3]: FFF01000, CID: B105E00D, PID: 003BB001 ITM -- CPU_ReadMem(16 bytes @ 0xE00FF010)
 -- CPU_ReadMem(16 bytes @ 0xE0040FF0) -- CPU_ReadMem(16 bytes @ 0xE0040FE0)ROMTbl 0 [4]: FFF41000, CID: B105900D, PID: 000BB9A1 TPIU -- CPU_ReadMem(16 bytes @ 0xE0041FF0) -- CPU_ReadMem(16 bytes @ 0xE0041FE0)ROMTbl 0 [5]: FFF42000, CID: B105900D, PID: 000BB925 ETM >0x0D TIF> >0x21 TIF>  returns 0x2BA01477 (0058ms, 0612ms total)
T1BA4 000:708 JLINK_GetDLLVersion()  returns 49805 (0000ms, 0612ms total)
T1BA4 000:708 JLINK_CORE_GetFound()  returns 0xE0000FF (0000ms, 0612ms total)
T1BA4 000:708 JLINK_GetDebugInfo(0x100) -- Value=0xE00FF003  returns 0x00 (0000ms, 0612ms total)
T1BA4 000:708 JLINK_ReadMem (0xE00FF000, 0x0020 Bytes, ...) -- CPU is running -- CPU_ReadMem(32 bytes @ 0xE00FF000) - Data: 03 F0 F0 FF 03 20 F0 FF 03 30 F0 FF 03 10 F0 FF ...  returns 0x00 (0001ms, 0613ms total)
T1BA4 000:709 JLINK_ReadMem (0xE000EFF0, 0x0010 Bytes, ...) -- CPU is running -- CPU_ReadMem(16 bytes @ 0xE000EFF0) - Data: 0D 00 00 00 E0 00 00 00 05 00 00 00 B1 00 00 00  returns 0x00 (0000ms, 0613ms total)
T1BA4 000:709 JLINK_ReadMem (0xE000EFD0, 0x0020 Bytes, ...) -- CPU is running -- CPU_ReadMem(32 bytes @ 0xE000EFD0) - Data: 04 00 00 00 00 00 00 00 00 00 00 00 00 00 00 00 ...  returns 0x00 (0001ms, 0614ms total)
T1BA4 000:710 JLINK_ReadMem (0xE0001FF0, 0x0010 Bytes, ...) -- CPU is running -- CPU_ReadMem(16 bytes @ 0xE0001FF0) - Data: 0D 00 00 00 E0 00 00 00 05 00 00 00 B1 00 00 00  returns 0x00 (0000ms, 0614ms total)
T1BA4 000:710 JLINK_ReadMem (0xE0001FD0, 0x0020 Bytes, ...) -- CPU is running -- CPU_ReadMem(32 bytes @ 0xE0001FD0) - Data: 04 00 00 00 00 00 00 00 00 00 00 00 00 00 00 00 ...  returns 0x00 (0001ms, 0615ms total)
T1BA4 000:711 JLINK_ReadMem (0xE0002FF0, 0x0010 Bytes, ...) -- CPU is running -- CPU_ReadMem(16 bytes @ 0xE0002FF0) - Data: 0D 00 00 00 E0 00 00 00 05 00 00 00 B1 00 00 00  returns 0x00 (0001ms, 0616ms total)
T1BA4 000:712 JLINK_ReadMem (0xE0002FD0, 0x0020 Bytes, ...) -- CPU is running -- CPU_ReadMem(32 bytes @ 0xE0002FD0) - Data: 04 00 00 00 00 00 00 00 00 00 00 00 00 00 00 00 ...  returns 0x00 (0001ms, 0617ms total)
T1BA4 000:713 JLINK_ReadMem (0xE0000FF0, 0x0010 Bytes, ...) -- CPU is running -- CPU_ReadMem(16 bytes @ 0xE0000FF0) - Data: 0D 00 00 00 E0 00 00 00 05 00 00 00 B1 00 00 00  returns 0x00 (0000ms, 0617ms total)
T1BA4 000:713 JLINK_ReadMem (0xE0000FD0, 0x0020 Bytes, ...) -- CPU is running -- CPU_ReadMem(32 bytes @ 0xE0000FD0) - Data: 04 00 00 00 00 00 00 00 00 00 00 00 00 00 00 00 ...  returns 0x00 (0001ms, 0618ms total)
T1BA4 000:714 JLINK_ReadMem (0xE0040FF0, 0x0010 Bytes, ...) -- CPU is running -- CPU_ReadMem(16 bytes @ 0xE0040FF0) - Data: 0D 00 00 00 90 00 00 00 05 00 00 00 B1 00 00 00  returns 0x00 (0000ms, 0618ms total)
T1BA4 000:714 JLINK_ReadMem (0xE0040FD0, 0x0020 Bytes, ...) -- CPU is running -- CPU_ReadMem(32 bytes @ 0xE0040FD0) - Data: 04 00 00 00 00 00 00 00 00 00 00 00 00 00 00 00 ...  returns 0x00 (0001ms, 0619ms total)
T1BA4 000:715 JLINK_ReadMem (0xE0041FF0, 0x0010 Bytes, ...) -- CPU is running -- CPU_ReadMem(16 bytes @ 0xE0041FF0) - Data: 0D 00 00 00 90 00 00 00 05 00 00 00 B1 00 00 00  returns 0x00 (0001ms, 0620ms total)
T1BA4 000:716 JLINK_ReadMem (0xE0041FD0, 0x0020 Bytes, ...) -- CPU is running -- CPU_ReadMem(32 bytes @ 0xE0041FD0) - Data: 04 00 00 00 00 00 00 00 00 00 00 00 00 00 00 00 ...  returns 0x00 (0001ms, 0621ms total)
T1BA4 000:717 JLINK_ReadMemU32(0xE000EF40, 0x0001 Items, ...) -- CPU is running -- CPU_ReadMem(4 bytes @ 0xE000EF40) - Data: 21 00 11 10  returns 0x01 (0000ms, 0621ms total)
T1BA4 000:717 JLINK_ReadMemU32(0xE000EF44, 0x0001 Items, ...) -- CPU is running -- CPU_ReadMem(4 bytes @ 0xE000EF44) - Data: 11 00 00 11  returns 0x01 (0001ms, 0622ms total)
T1BA4 000:718 JLINK_ReadMemU32(0xE000ED00, 0x0001 Items, ...) -- CPU is running -- CPU_ReadMem(4 bytes @ 0xE000ED00) - Data: 41 C2 0F 41  returns 0x01 (0000ms, 0622ms total)
T1BA4 000:718 JLINK_SetResetType(JLINKARM_RESET_TYPE_NORMAL)  returns JLINKARM_RESET_TYPE_NORMAL (0000ms, 0622ms total)
T1BA4 000:718 JLINK_Reset() -- CPU_WriteMem(4 bytes @ 0xE0002000) -- CPU_ReadMem(4 bytes @ 0xE000EDFC) -- CPU_WriteMem(4 bytes @ 0xE000EDFC) -- CPU_ReadMem(4 bytes @ 0xE0001000) (0013ms, 0635ms total)
T1BA4 000:731 JLINK_ReadReg(R15 (PC))  returns 0x08000258 (0000ms, 0635ms total)
T1BA4 000:731 JLINK_ReadReg(XPSR)  returns 0x01000000 (0000ms, 0635ms total)
T1BA4 000:731 JLINK_Halt()  returns 0x00 (0000ms, 0635ms total)
T1BA4 000:731 JLINK_IsHalted()  returns TRUE (0000ms, 0635ms total)
T1BA4 000:731 JLINK_ReadMemU32(0xE000EDF0, 0x0001 Items, ...) -- CPU_ReadMem(4 bytes @ 0xE000EDF0) - Data: 03 00 03 00  returns 0x01 (0001ms, 0636ms total)
T1BA4 000:732 JLINK_WriteU32(0xE000EDF0, 0xA05F0003) -- CPU_WriteMem(4 bytes @ 0xE000EDF0)  returns 0x00 (0001ms, 0637ms total)
T1BA4 000:733 JLINK_WriteU32(0xE000EDFC, 0x01000000) -- CPU_WriteMem(4 bytes @ 0xE000EDFC)  returns 0x00 (0000ms, 0637ms total)
T1BA4 000:734 JLINK_GetHWStatus(...)  returns 0x00 (0001ms, 0638ms total)
T1BA4 000:735 JLINK_GetNumBPUnits(Type = 0xFFFFFF00)  returns 0x06 (0000ms, 0638ms total)
T1BA4 000:735 JLINK_GetNumBPUnits(Type = 0xF0)  returns 0x2000 (0000ms, 0638ms total)
T1BA4 000:735 JLINK_GetNumWPUnits()  returns 0x04 (0000ms, 0638ms total)
T1BA4 000:735 JLINK_GetSpeed()  returns 0xFA0 (0000ms, 0638ms total)
T1BA4 000:736 JLINK_ReadMemU32(0xE000E004, 0x0001 Items, ...) -- CPU_ReadMem(4 bytes @ 0xE000E004) - Data: 02 00 00 00  returns 0x01 (0000ms, 0638ms total)
T1BA4 000:736 JLINK_ReadMemU32(0xE000E004, 0x0001 Items, ...) -- CPU_ReadMem(4 bytes @ 0xE000E004) - Data: 02 00 00 00  returns 0x01 (0002ms, 0640ms total)
T1BA4 000:738 JLINK_WriteMem(0xE0001000, 0x001C Bytes, ...) - Data: 01 00 00 00 00 00 00 00 00 00 00 00 00 00 00 00 ... -- CPU_WriteMem(28 bytes @ 0xE0001000)  returns 0x1C (0001ms, 0641ms total)
T1BA4 000:739 JLINK_ReadMem (0xE0001000, 0x001C Bytes, ...) -- CPU_ReadMem(28 bytes @ 0xE0001000) - Data: 01 00 00 40 00 00 00 00 00 00 00 00 00 00 00 00 ...  returns 0x00 (0000ms, 0641ms total)
T1BA4 000:739 JLINK_ReadReg(R15 (PC))  returns 0x08000258 (0000ms, 0641ms total)
T1BA4 000:739 JLINK_ReadReg(XPSR)  returns 0x01000000 (0000ms, 0641ms total)
T1BA4 000:834 JLINK_SetResetType(JLINKARM_RESET_TYPE_NORMAL)  returns JLINKARM_RESET_TYPE_NORMAL (0000ms, 0641ms total)
T1BA4 000:834 JLINK_Reset() -- CPU_WriteMem(4 bytes @ 0xE0002000) -- CPU_ReadMem(4 bytes @ 0xE000EDFC) -- CPU_WriteMem(4 bytes @ 0xE000EDFC) -- CPU_ReadMem(4 bytes @ 0xE0001000) (0014ms, 0655ms total)
T1BA4 000:848 JLINK_ReadReg(R15 (PC))  returns 0x08000258 (0000ms, 0655ms total)
T1BA4 000:848 JLINK_ReadReg(XPSR)  returns 0x01000000 (0000ms, 0655ms total)
T1BA4 000:849 JLINK_ReadMem (0x08000258, 0x003C Bytes, ...) -- CPU_ReadMem(128 bytes @ 0x08000240) -- Updating C cache (128 bytes @ 0x08000240) -- Read from C cache (60 bytes @ 0x08000258) - Data: 06 48 80 47 06 48 00 47 FE E7 FE E7 FE E7 FE E7 ...  returns 0x00 (0002ms, 0657ms total)
T1BA4 001:720 JLINK_ReadMem (0x20004CE0, 0x0020 Bytes, ...) -- CPU_ReadMem(64 bytes @ 0x20004CC0) -- Updating C cache (64 bytes @ 0x20004CC0) -- Read from C cache (32 bytes @ 0x20004CE0) - Data: 24 47 50 52 4D 43 2C 2C 56 2C 2C 2C 2C 2C 2C 2C ...  returns 0x00 (0002ms, 0659ms total)
T1BA4 001:725 JLINK_ReadMem (0x200001F4, 0x0004 Bytes, ...) -- CPU_ReadMem(64 bytes @ 0x200001C0) -- Updating C cache (64 bytes @ 0x200001C0) -- Read from C cache (4 bytes @ 0x200001F4) - Data: A2 00 00 00  returns 0x00 (0001ms, 0660ms total)
T0BD8 001:748 JLINK_SetBPEx(Addr = 0x08005604, Type = 0xFFFFFFF2)  returns 0x00000001 (0000ms, 0660ms total)
T0BD8 001:748 JLINK_SetBPEx(Addr = 0x0800553E, Type = 0xFFFFFFF2)  returns 0x00000002 (0000ms, 0660ms total)
T0BD8 001:748 JLINK_Go() -- CPU_WriteMem(4 bytes @ 0xE0002000) -- CPU_WriteMem(4 bytes @ 0xE0002000) -- CPU_ReadMem(4 bytes @ 0xE0001000) -- CPU_WriteMem(4 bytes @ 0xE0002008) -- CPU_WriteMem(4 bytes @ 0xE000200C) -- CPU_WriteMem(4 bytes @ 0xE0002010) -- CPU_WriteMem(4 bytes @ 0xE0002014) -- CPU_WriteMem(4 bytes @ 0xE0002018) -- CPU_WriteMem(4 bytes @ 0xE000201C) -- CPU_WriteMem(4 bytes @ 0xE0001004) (0005ms, 0665ms total)
T0BD8 001:853 JLINK_IsHalted()  returns TRUE (0004ms, 0669ms total)
T0BD8 001:857 JLINK_Halt()  returns 0x00 (0000ms, 0665ms total)
T0BD8 001:857 JLINK_IsHalted()  returns TRUE (0000ms, 0665ms total)
T0BD8 001:857 JLINK_IsHalted()  returns TRUE (0000ms, 0665ms total)
T0BD8 001:857 JLINK_IsHalted()  returns TRUE (0000ms, 0665ms total)
T0BD8 001:857 JLINK_ReadReg(R15 (PC))  returns 0x08005604 (0000ms, 0665ms total)
T0BD8 001:857 JLINK_ReadReg(XPSR)  returns 0x61000000 (0000ms, 0665ms total)
T0BD8 001:857 JLINK_ClrBPEx(BPHandle = 0x00000001)  returns 0x00 (0000ms, 0665ms total)
T0BD8 001:857 JLINK_ClrBPEx(BPHandle = 0x00000002)  returns 0x00 (0001ms, 0666ms total)
T0BD8 001:858 JLINK_ReadMemU32(0xE000ED30, 0x0001 Items, ...) -- CPU_ReadMem(4 bytes @ 0xE000ED30) - Data: 03 00 00 00  returns 0x01 (0000ms, 0666ms total)
T0BD8 001:858 JLINK_ReadMemU32(0xE0001028, 0x0001 Items, ...) -- CPU_ReadMem(4 bytes @ 0xE0001028) - Data: 00 00 00 00  returns 0x01 (0001ms, 0667ms total)
T0BD8 001:859 JLINK_ReadMemU32(0xE0001038, 0x0001 Items, ...) -- CPU_ReadMem(4 bytes @ 0xE0001038) - Data: 00 02 00 00  returns 0x01 (0001ms, 0668ms total)
T0BD8 001:860 JLINK_ReadMemU32(0xE0001048, 0x0001 Items, ...) -- CPU_ReadMem(4 bytes @ 0xE0001048) - Data: 00 00 00 00  returns 0x01 (0001ms, 0669ms total)
T0BD8 001:861 JLINK_ReadMemU32(0xE0001058, 0x0001 Items, ...) -- CPU_ReadMem(4 bytes @ 0xE0001058) - Data: 00 00 00 00  returns 0x01 (0001ms, 0670ms total)
T0BD8 001:862 JLINK_ReadReg(R0)  returns 0x08005605 (0000ms, 0670ms total)
T0BD8 001:862 JLINK_ReadReg(R1)  returns 0x20005740 (0000ms, 0670ms total)
T0BD8 001:862 JLINK_ReadReg(R2)  returns 0x00000000 (0000ms, 0670ms total)
T0BD8 001:862 JLINK_ReadReg(R3)  returns 0x08005571 (0000ms, 0670ms total)
T0BD8 001:862 JLINK_ReadReg(R4)  returns 0x080063D4 (0000ms, 0670ms total)
T0BD8 001:862 JLINK_ReadReg(R5)  returns 0x080063D4 (0000ms, 0670ms total)
T0BD8 001:862 JLINK_ReadReg(R6)  returns 0x00000000 (0000ms, 0670ms total)
T0BD8 001:862 JLINK_ReadReg(R7)  returns 0x00000000 (0000ms, 0670ms total)
T0BD8 001:862 JLINK_ReadReg(R8)  returns 0x00000000 (0000ms, 0670ms total)
T0BD8 001:862 JLINK_ReadReg(R9)  returns 0x00000000 (0000ms, 0670ms total)
T0BD8 001:862 JLINK_ReadReg(R10)  returns 0x00000000 (0000ms, 0670ms total)
T0BD8 001:862 JLINK_ReadReg(R11)  returns 0x00000000 (0000ms, 0670ms total)
T0BD8 001:862 JLINK_ReadReg(R12)  returns 0x00000000 (0001ms, 0671ms total)
T0BD8 001:863 JLINK_ReadReg(R13 (SP))  returns 0x20005740 (0000ms, 0671ms total)
T0BD8 001:863 JLINK_ReadReg(R14)  returns 0x080002E1 (0000ms, 0671ms total)
T0BD8 001:863 JLINK_ReadReg(R15 (PC))  returns 0x08005604 (0000ms, 0671ms total)
T0BD8 001:863 JLINK_ReadReg(XPSR)  returns 0x61000000 (0000ms, 0671ms total)
T0BD8 001:863 JLINK_ReadReg(MSP)  returns 0x20005740 (0000ms, 0671ms total)
T0BD8 001:863 JLINK_ReadReg(PSP)  returns 0x00000000 (0000ms, 0671ms total)
T0BD8 001:863 JLINK_ReadReg(CFBP)  returns 0x00000000 (0000ms, 0671ms total)
T0BD8 001:863 JLINK_ReadReg(FPSCR)  returns 0x00000000 (0005ms, 0676ms total)
T0BD8 001:868 JLINK_ReadReg(FPS0)  returns 0x00000000 (0000ms, 0676ms total)
T0BD8 001:868 JLINK_ReadReg(FPS1)  returns 0x00000000 (0000ms, 0676ms total)
T0BD8 001:868 JLINK_ReadReg(FPS2)  returns 0x00000000 (0000ms, 0676ms total)
T0BD8 001:868 JLINK_ReadReg(FPS3)  returns 0x00000000 (0000ms, 0676ms total)
T0BD8 001:868 JLINK_ReadReg(FPS4)  returns 0x00000000 (0001ms, 0677ms total)
T0BD8 001:869 JLINK_ReadReg(FPS5)  returns 0x00000000 (0000ms, 0677ms total)
T0BD8 001:869 JLINK_ReadReg(FPS6)  returns 0x00000000 (0000ms, 0677ms total)
T0BD8 001:869 JLINK_ReadReg(FPS7)  returns 0x00000000 (0000ms, 0677ms total)
T0BD8 001:869 JLINK_ReadReg(FPS8)  returns 0x00000000 (0000ms, 0677ms total)
T0BD8 001:869 JLINK_ReadReg(FPS9)  returns 0x00000000 (0000ms, 0677ms total)
T0BD8 001:869 JLINK_ReadReg(FPS10)  returns 0x00000000 (0000ms, 0677ms total)
T0BD8 001:869 JLINK_ReadReg(FPS11)  returns 0x00000000 (0000ms, 0677ms total)
T0BD8 001:869 JLINK_ReadReg(FPS12)  returns 0x00000000 (0000ms, 0677ms total)
T0BD8 001:869 JLINK_ReadReg(FPS13)  returns 0x00000000 (0000ms, 0677ms total)
T0BD8 001:869 JLINK_ReadReg(FPS14)  returns 0x00000000 (0000ms, 0677ms total)
T0BD8 001:869 JLINK_ReadReg(FPS15)  returns 0x00000000 (0000ms, 0677ms total)
T0BD8 001:869 JLINK_ReadReg(FPS16)  returns 0x00000000 (0000ms, 0677ms total)
T0BD8 001:869 JLINK_ReadReg(FPS17)  returns 0x00000000 (0000ms, 0677ms total)
T0BD8 001:869 JLINK_ReadReg(FPS18)  returns 0x00000000 (0000ms, 0677ms total)
T0BD8 001:869 JLINK_ReadReg(FPS19)  returns 0x00000000 (0000ms, 0677ms total)
T0BD8 001:869 JLINK_ReadReg(FPS20)  returns 0x00000000 (0000ms, 0677ms total)
T0BD8 001:869 JLINK_ReadReg(FPS21)  returns 0x00000000 (0000ms, 0677ms total)
T0BD8 001:869 JLINK_ReadReg(FPS22)  returns 0x00000000 (0000ms, 0677ms total)
T0BD8 001:869 JLINK_ReadReg(FPS23)  returns 0x00000000 (0000ms, 0677ms total)
T0BD8 001:870 JLINK_ReadReg(FPS24)  returns 0x00000000 (0000ms, 0677ms total)
T0BD8 001:870 JLINK_ReadReg(FPS25)  returns 0x00000000 (0000ms, 0677ms total)
T0BD8 001:870 JLINK_ReadReg(FPS26)  returns 0x00000000 (0000ms, 0677ms total)
T0BD8 001:870 JLINK_ReadReg(FPS27)  returns 0x00000000 (0000ms, 0677ms total)
T0BD8 001:870 JLINK_ReadReg(FPS28)  returns 0x00000000 (0000ms, 0677ms total)
T0BD8 001:870 JLINK_ReadReg(FPS29)  returns 0x00000000 (0000ms, 0677ms total)
T0BD8 001:870 JLINK_ReadReg(FPS30)  returns 0x00000000 (0000ms, 0677ms total)
T0BD8 001:870 JLINK_ReadReg(FPS31)  returns 0x00000000 (0000ms, 0677ms total)
T1BA4 001:874 JLINK_ReadMemU32(0xE0001004, 0x0001 Items, ...) -- CPU_ReadMem(4 bytes @ 0xE0001004) - Data: E1 90 00 00  returns 0x01 (0001ms, 0678ms total)
T1BA4 001:879 JLINK_ReadMem (0x20004CE0, 0x0020 Bytes, ...) -- CPU_ReadMem(64 bytes @ 0x20004CC0) -- Updating C cache (64 bytes @ 0x20004CC0) -- Read from C cache (32 bytes @ 0x20004CE0) - Data: 00 00 00 00 00 00 00 00 00 00 00 00 00 00 00 00 ...  returns 0x00 (0002ms, 0680ms total)
T1BA4 001:883 JLINK_ReadMem (0x200001F4, 0x0004 Bytes, ...) -- CPU_ReadMem(64 bytes @ 0x200001C0) -- Updating C cache (64 bytes @ 0x200001C0) -- Read from C cache (4 bytes @ 0x200001F4) - Data: 00 00 00 00  returns 0x00 (0001ms, 0681ms total)
T0BD8 010:776 JLINK_SetBPEx(Addr = 0x0800553E, Type = 0xFFFFFFF2)  returns 0x00000003 (0001ms, 0682ms total)
T0BD8 010:777 JLINK_Go() -- CPU_WriteMem(4 bytes @ 0xE0002000) -- CPU_ReadMem(4 bytes @ 0xE0001000) -- CPU_WriteMem(4 bytes @ 0xE0002008) -- CPU_WriteMem(4 bytes @ 0xE000200C) (0003ms, 0685ms total)
T0BD8 010:881 JLINK_IsHalted()  returns FALSE (0000ms, 0685ms total)
T0BD8 010:982 JLINK_IsHalted()  returns FALSE (0000ms, 0685ms total)
T0BD8 011:083 JLINK_IsHalted()  returns FALSE (0000ms, 0685ms total)
T0BD8 011:185 JLINK_IsHalted()  returns FALSE (0000ms, 0685ms total)
T0BD8 011:286 JLINK_IsHalted()  returns FALSE (0000ms, 0685ms total)
T0BD8 011:388 JLINK_ReadMemU32(0xE0001004, 0x0001 Items, ...) -- CPU is running -- CPU_ReadMem(4 bytes @ 0xE0001004) - Data: 3E 38 16 06  returns 0x01 (0000ms, 0685ms total)
T1BA4 011:391 JLINK_ReadMem (0x20004CE0, 0x0020 Bytes, ...) -- CPU is running -- CPU_ReadMem(32 bytes @ 0x20004CE0) - Data: 00 00 00 00 00 00 00 00 00 00 00 00 00 00 00 00 ...  returns 0x00 (0001ms, 0686ms total)
T1BA4 011:393 JLINK_ReadMem (0x200001F4, 0x0004 Bytes, ...) -- CPU is running -- CPU_ReadMem(4 bytes @ 0x200001F4) - Data: 00 00 00 00  returns 0x00 (0000ms, 0686ms total)
T0BD8 011:394 JLINK_IsHalted()  returns FALSE (0001ms, 0687ms total)
T0BD8 011:495 JLINK_IsHalted()  returns TRUE (0003ms, 0689ms total)
T0BD8 011:498 JLINK_Halt()  returns 0x00 (0000ms, 0686ms total)
T0BD8 011:498 JLINK_IsHalted()  returns TRUE (0000ms, 0686ms total)
T0BD8 011:498 JLINK_IsHalted()  returns TRUE (0000ms, 0686ms total)
T0BD8 011:498 JLINK_IsHalted()  returns TRUE (0000ms, 0686ms total)
T0BD8 011:498 JLINK_ReadReg(R15 (PC))  returns 0x0800553E (0000ms, 0686ms total)
T0BD8 011:498 JLINK_ReadReg(XPSR)  returns 0x41000045 (0000ms, 0686ms total)
T0BD8 011:498 JLINK_ClrBPEx(BPHandle = 0x00000003)  returns 0x00 (0000ms, 0686ms total)
T0BD8 011:498 JLINK_ReadMemU32(0xE000ED30, 0x0001 Items, ...) -- CPU_ReadMem(4 bytes @ 0xE000ED30) - Data: 03 00 00 00  returns 0x01 (0001ms, 0687ms total)
T0BD8 011:499 JLINK_ReadMemU32(0xE0001028, 0x0001 Items, ...) -- CPU_ReadMem(4 bytes @ 0xE0001028) - Data: 00 00 00 00  returns 0x01 (0001ms, 0688ms total)
T0BD8 011:500 JLINK_ReadMemU32(0xE0001038, 0x0001 Items, ...) -- CPU_ReadMem(4 bytes @ 0xE0001038) - Data: 00 02 00 00  returns 0x01 (0001ms, 0689ms total)
T0BD8 011:501 JLINK_ReadMemU32(0xE0001048, 0x0001 Items, ...) -- CPU_ReadMem(4 bytes @ 0xE0001048) - Data: 00 00 00 00  returns 0x01 (0001ms, 0690ms total)
T0BD8 011:502 JLINK_ReadMemU32(0xE0001058, 0x0001 Items, ...) -- CPU_ReadMem(4 bytes @ 0xE0001058) - Data: 00 00 00 00  returns 0x01 (0000ms, 0690ms total)
T0BD8 011:502 JLINK_ReadReg(R0)  returns 0x000000A2 (0000ms, 0690ms total)
T0BD8 011:502 JLINK_ReadReg(R1)  returns 0x200001E8 (0001ms, 0691ms total)
T0BD8 011:503 JLINK_ReadReg(R2)  returns 0x00000000 (0000ms, 0691ms total)
T0BD8 011:503 JLINK_ReadReg(R3)  returns 0x1C000000 (0000ms, 0691ms total)
T0BD8 011:503 JLINK_ReadReg(R4)  returns 0x20004274 (0000ms, 0691ms total)
T0BD8 011:503 JLINK_ReadReg(R5)  returns 0xE000ED04 (0000ms, 0691ms total)
T0BD8 011:503 JLINK_ReadReg(R6)  returns 0x200002C8 (0000ms, 0691ms total)
T0BD8 011:503 JLINK_ReadReg(R7)  returns 0xA5A5A5A5 (0000ms, 0691ms total)
T0BD8 011:503 JLINK_ReadReg(R8)  returns 0xA5A5A5A5 (0000ms, 0691ms total)
T0BD8 011:503 JLINK_ReadReg(R9)  returns 0xA5A5A5A5 (0000ms, 0691ms total)
T0BD8 011:503 JLINK_ReadReg(R10)  returns 0xA5A5A5A5 (0000ms, 0691ms total)
T0BD8 011:503 JLINK_ReadReg(R11)  returns 0xA5A5A5A5 (0000ms, 0691ms total)
T0BD8 011:503 JLINK_ReadReg(R12)  returns 0xA5A5A5A5 (0000ms, 0691ms total)
T0BD8 011:503 JLINK_ReadReg(R13 (SP))  returns 0x20005710 (0000ms, 0691ms total)
T0BD8 011:503 JLINK_ReadReg(R14)  returns 0x08002ADB (0000ms, 0691ms total)
T0BD8 011:503 JLINK_ReadReg(R15 (PC))  returns 0x0800553E (0000ms, 0691ms total)
T0BD8 011:503 JLINK_ReadReg(XPSR)  returns 0x41000045 (0000ms, 0691ms total)
T0BD8 011:503 JLINK_ReadReg(MSP)  returns 0x20005710 (0000ms, 0691ms total)
T0BD8 011:503 JLINK_ReadReg(PSP)  returns 0x20000E80 (0000ms, 0691ms total)
T0BD8 011:503 JLINK_ReadReg(CFBP)  returns 0x00000000 (0000ms, 0691ms total)
T0BD8 011:503 JLINK_ReadReg(FPSCR)  returns 0x00000000 (0006ms, 0697ms total)
T0BD8 011:509 JLINK_ReadReg(FPS0)  returns 0x00000000 (0000ms, 0697ms total)
T0BD8 011:509 JLINK_ReadReg(FPS1)  returns 0x00000000 (0000ms, 0697ms total)
T0BD8 011:509 JLINK_ReadReg(FPS2)  returns 0x00000000 (0000ms, 0697ms total)
T0BD8 011:509 JLINK_ReadReg(FPS3)  returns 0x00000000 (0000ms, 0697ms total)
T0BD8 011:509 JLINK_ReadReg(FPS4)  returns 0x00000000 (0000ms, 0697ms total)
T0BD8 011:509 JLINK_ReadReg(FPS5)  returns 0x00000000 (0000ms, 0697ms total)
T0BD8 011:509 JLINK_ReadReg(FPS6)  returns 0x00000000 (0000ms, 0697ms total)
T0BD8 011:509 JLINK_ReadReg(FPS7)  returns 0x00000000 (0000ms, 0697ms total)
T0BD8 011:509 JLINK_ReadReg(FPS8)  returns 0x00000000 (0000ms, 0697ms total)
T0BD8 011:509 JLINK_ReadReg(FPS9)  returns 0x00000000 (0000ms, 0697ms total)
T0BD8 011:509 JLINK_ReadReg(FPS10)  returns 0x00000000 (0000ms, 0697ms total)
T0BD8 011:509 JLINK_ReadReg(FPS11)  returns 0x00000000 (0000ms, 0697ms total)
T0BD8 011:509 JLINK_ReadReg(FPS12)  returns 0x00000000 (0000ms, 0697ms total)
T0BD8 011:509 JLINK_ReadReg(FPS13)  returns 0x00000000 (0000ms, 0697ms total)
T0BD8 011:509 JLINK_ReadReg(FPS14)  returns 0x00000000 (0000ms, 0697ms total)
T0BD8 011:509 JLINK_ReadReg(FPS15)  returns 0x00000000 (0000ms, 0697ms total)
T0BD8 011:509 JLINK_ReadReg(FPS16)  returns 0x00000000 (0000ms, 0697ms total)
T0BD8 011:509 JLINK_ReadReg(FPS17)  returns 0x00000000 (0000ms, 0697ms total)
T0BD8 011:509 JLINK_ReadReg(FPS18)  returns 0x00000000 (0000ms, 0697ms total)
T0BD8 011:509 JLINK_ReadReg(FPS19)  returns 0x00000000 (0000ms, 0697ms total)
T0BD8 011:509 JLINK_ReadReg(FPS20)  returns 0x00000000 (0000ms, 0697ms total)
T0BD8 011:509 JLINK_ReadReg(FPS21)  returns 0x00000000 (0001ms, 0698ms total)
T0BD8 011:510 JLINK_ReadReg(FPS22)  returns 0x00000000 (0000ms, 0698ms total)
T0BD8 011:510 JLINK_ReadReg(FPS23)  returns 0x00000000 (0000ms, 0698ms total)
T0BD8 011:510 JLINK_ReadReg(FPS24)  returns 0x00000000 (0000ms, 0698ms total)
T0BD8 011:510 JLINK_ReadReg(FPS25)  returns 0x00000000 (0000ms, 0698ms total)
T0BD8 011:510 JLINK_ReadReg(FPS26)  returns 0x00000000 (0000ms, 0698ms total)
T0BD8 011:510 JLINK_ReadReg(FPS27)  returns 0x00000000 (0000ms, 0698ms total)
T0BD8 011:510 JLINK_ReadReg(FPS28)  returns 0x00000000 (0000ms, 0698ms total)
T0BD8 011:510 JLINK_ReadReg(FPS29)  returns 0x00000000 (0000ms, 0698ms total)
T0BD8 011:510 JLINK_ReadReg(FPS30)  returns 0x00000000 (0000ms, 0698ms total)
T0BD8 011:510 JLINK_ReadReg(FPS31)  returns 0x00000000 (0000ms, 0698ms total)
T1BA4 011:510 JLINK_ReadMem (0x2000571C, 0x0004 Bytes, ...) -- CPU_ReadMem(64 bytes @ 0x20005700) -- Updating C cache (64 bytes @ 0x20005700) -- Read from C cache (4 bytes @ 0x2000571C) - Data: FD FF FF FF  returns 0x00 (0002ms, 0700ms total)
T1BA4 011:512 JLINK_ReadMem (0x20000E98, 0x0004 Bytes, ...) -- CPU_ReadMem(64 bytes @ 0x20000E80) -- Updating C cache (64 bytes @ 0x20000E80) -- Read from C cache (4 bytes @ 0x20000E98) - Data: B4 58 00 08  returns 0x00 (0001ms, 0701ms total)
T1BA4 011:513 JLINK_ReadMem (0x20000E9C, 0x0004 Bytes, ...) -- Read from C cache (4 bytes @ 0x20000E9C) - Data: 00 00 00 61  returns 0x00 (0000ms, 0701ms total)
T1BA4 011:513 JLINK_ReadMem (0x20000E94, 0x0004 Bytes, ...) -- Read from C cache (4 bytes @ 0x20000E94) - Data: 1D 59 00 08  returns 0x00 (0000ms, 0701ms total)
T1BA4 011:513 JLINK_ReadMem (0xE000ED28, 0x0004 Bytes, ...) -- CPU_ReadMem(4 bytes @ 0xE000ED28) - Data: 00 00 00 00  returns 0x00 (0001ms, 0702ms total)
T1BA4 011:515 JLINK_ReadMem (0x20000EAC, 0x0004 Bytes, ...) -- Read from C cache (4 bytes @ 0x20000EAC) - Data: 1D 59 00 08  returns 0x00 (0001ms, 0703ms total)
T1BA4 011:516 JLINK_ReadMem (0x20000EA0, 0x0004 Bytes, ...) -- Read from C cache (4 bytes @ 0x20000EA0) - Data: 00 02 00 20  returns 0x00 (0000ms, 0703ms total)
T1BA4 011:516 JLINK_ReadMem (0x20000EA4, 0x0004 Bytes, ...) -- Read from C cache (4 bytes @ 0x20000EA4) - Data: 04 ED 00 E0  returns 0x00 (0000ms, 0703ms total)
T1BA4 011:516 JLINK_ReadMem (0x20000EA8, 0x0004 Bytes, ...) -- Read from C cache (4 bytes @ 0x20000EA8) - Data: 00 00 00 10  returns 0x00 (0000ms, 0703ms total)
T1BA4 011:517 JLINK_ReadMem (0x00000000, 0x0004 Bytes, ...) -- CPU_ReadMem(4 bytes @ 0x00000004) -- CPU_ReadMem(64 bytes @ 0x08000000) -- Updating C cache (64 bytes @ 0x08000000) -- Read from C cache (4 bytes @ 0x08000000) - Data: 40 57 00 20  returns 0x00 (0002ms, 0705ms total)
T1BA4 011:520 JLINK_ReadMemU32(0xE0001004, 0x0001 Items, ...) -- CPU_ReadMem(4 bytes @ 0xE0001004) - Data: 70 EB A2 06  returns 0x01 (0001ms, 0706ms total)
T1BA4 011:522 JLINK_ReadMem (0x20004CE0, 0x0020 Bytes, ...) -- CPU_ReadMem(64 bytes @ 0x20004CC0) -- Updating C cache (64 bytes @ 0x20004CC0) -- Read from C cache (32 bytes @ 0x20004CE0) - Data: 24 47 50 52 4D 43 2C 2C 56 2C 2C 2C 2C 2C 2C 2C ...  returns 0x00 (0001ms, 0707ms total)
T1BA4 011:526 JLINK_ReadMem (0x200001F4, 0x0004 Bytes, ...) -- CPU_ReadMem(64 bytes @ 0x200001C0) -- Updating C cache (64 bytes @ 0x200001C0) -- Read from C cache (4 bytes @ 0x200001F4) - Data: 00 00 00 00  returns 0x00 (0001ms, 0708ms total)
T1BA4 011:533 JLINK_ReadMem (0x0800553E, 0x0002 Bytes, ...) -- CPU_ReadMem(64 bytes @ 0x08005500) -- Updating C cache (64 bytes @ 0x08005500) -- Read from C cache (2 bytes @ 0x0800553E) - Data: 4F F4  returns 0x00 (0002ms, 0710ms total)
T1BA4 011:535 JLINK_ReadMem (0x08005540, 0x003C Bytes, ...) -- CPU_ReadMem(64 bytes @ 0x08005540) -- Updating C cache (64 bytes @ 0x08005540) -- Read from C cache (60 bytes @ 0x08005540) - Data: 00 72 C8 60 20 46 BD E8 38 40 04 49 FD F7 86 BC ...  returns 0x00 (0001ms, 0711ms total)
T0BD8 017:958 JLINK_Step() -- Read from C cache (2 bytes @ 0x0800553E) -- Read from C cache (2 bytes @ 0x08005540) -- Simulated  returns 0x00 (0001ms, 0712ms total)
T0BD8 017:959 JLINK_ReadReg(R15 (PC))  returns 0x08005542 (0000ms, 0712ms total)
T0BD8 017:959 JLINK_ReadReg(XPSR)  returns 0x41000045 (0000ms, 0712ms total)
T0BD8 017:959 JLINK_SetBPEx(Addr = 0x0800553E, Type = 0xFFFFFFF2)  returns 0x00000004 (0000ms, 0712ms total)
T0BD8 017:959 JLINK_Go() -- CPU_WriteMem(4 bytes @ 0xE0002000) -- CPU_ReadMem(4 bytes @ 0xE0001000) -- CPU_WriteMem(4 bytes @ 0xE0001004) (0002ms, 0714ms total)
T0BD8 018:062 JLINK_IsHalted()  returns TRUE (0002ms, 0716ms total)
T0BD8 018:064 JLINK_Halt()  returns 0x00 (0000ms, 0714ms total)
T0BD8 018:064 JLINK_IsHalted()  returns TRUE (0000ms, 0714ms total)
T0BD8 018:064 JLINK_IsHalted()  returns TRUE (0000ms, 0714ms total)
T0BD8 018:064 JLINK_IsHalted()  returns TRUE (0000ms, 0714ms total)
T0BD8 018:064 JLINK_ReadReg(R15 (PC))  returns 0x0800553E (0000ms, 0714ms total)
T0BD8 018:064 JLINK_ReadReg(XPSR)  returns 0x41000045 (0000ms, 0714ms total)
T0BD8 018:064 JLINK_ClrBPEx(BPHandle = 0x00000004)  returns 0x00 (0000ms, 0714ms total)
T0BD8 018:064 JLINK_ReadMemU32(0xE000ED30, 0x0001 Items, ...) -- CPU_ReadMem(4 bytes @ 0xE000ED30) - Data: 03 00 00 00  returns 0x01 (0001ms, 0715ms total)
T0BD8 018:065 JLINK_ReadMemU32(0xE0001028, 0x0001 Items, ...) -- CPU_ReadMem(4 bytes @ 0xE0001028) - Data: 00 00 00 00  returns 0x01 (0000ms, 0715ms total)
T0BD8 018:065 JLINK_ReadMemU32(0xE0001038, 0x0001 Items, ...) -- CPU_ReadMem(4 bytes @ 0xE0001038) - Data: 00 02 00 00  returns 0x01 (0001ms, 0716ms total)
T0BD8 018:066 JLINK_ReadMemU32(0xE0001048, 0x0001 Items, ...) -- CPU_ReadMem(4 bytes @ 0xE0001048) - Data: 00 00 00 00  returns 0x01 (0000ms, 0716ms total)
T0BD8 018:066 JLINK_ReadMemU32(0xE0001058, 0x0001 Items, ...) -- CPU_ReadMem(4 bytes @ 0xE0001058) - Data: 00 00 00 00  returns 0x01 (0001ms, 0717ms total)
T0BD8 018:067 JLINK_ReadReg(R0)  returns 0x00000001 (0000ms, 0717ms total)
T0BD8 018:067 JLINK_ReadReg(R1)  returns 0x200001E8 (0000ms, 0717ms total)
T0BD8 018:067 JLINK_ReadReg(R2)  returns 0x00000020 (0000ms, 0717ms total)
T0BD8 018:067 JLINK_ReadReg(R3)  returns 0x00000041 (0000ms, 0717ms total)
T0BD8 018:067 JLINK_ReadReg(R4)  returns 0x20004274 (0000ms, 0717ms total)
T0BD8 018:067 JLINK_ReadReg(R5)  returns 0xE000ED04 (0000ms, 0717ms total)
T0BD8 018:067 JLINK_ReadReg(R6)  returns 0x200002C8 (0000ms, 0717ms total)
T0BD8 018:067 JLINK_ReadReg(R7)  returns 0xA5A5A5A5 (0000ms, 0717ms total)
T0BD8 018:067 JLINK_ReadReg(R8)  returns 0xA5A5A5A5 (0000ms, 0717ms total)
T0BD8 018:067 JLINK_ReadReg(R9)  returns 0xA5A5A5A5 (0000ms, 0717ms total)
T0BD8 018:067 JLINK_ReadReg(R10)  returns 0xA5A5A5A5 (0000ms, 0717ms total)
T0BD8 018:067 JLINK_ReadReg(R11)  returns 0xA5A5A5A5 (0000ms, 0717ms total)
T0BD8 018:067 JLINK_ReadReg(R12)  returns 0xA5A5A5A5 (0000ms, 0717ms total)
T0BD8 018:067 JLINK_ReadReg(R13 (SP))  returns 0x20005710 (0000ms, 0717ms total)
T0BD8 018:067 JLINK_ReadReg(R14)  returns 0x08005533 (0000ms, 0717ms total)
T0BD8 018:067 JLINK_ReadReg(R15 (PC))  returns 0x0800553E (0000ms, 0717ms total)
T0BD8 018:067 JLINK_ReadReg(XPSR)  returns 0x41000045 (0000ms, 0717ms total)
T0BD8 018:067 JLINK_ReadReg(MSP)  returns 0x20005710 (0000ms, 0717ms total)
T0BD8 018:067 JLINK_ReadReg(PSP)  returns 0x20000E80 (0000ms, 0717ms total)
T0BD8 018:067 JLINK_ReadReg(CFBP)  returns 0x00000000 (0000ms, 0717ms total)
T0BD8 018:067 JLINK_ReadReg(FPSCR)  returns 0x00000000 (0004ms, 0721ms total)
T0BD8 018:071 JLINK_ReadReg(FPS0)  returns 0x00000000 (0000ms, 0721ms total)
T0BD8 018:071 JLINK_ReadReg(FPS1)  returns 0x00000000 (0000ms, 0721ms total)
T0BD8 018:071 JLINK_ReadReg(FPS2)  returns 0x00000000 (0000ms, 0721ms total)
T0BD8 018:071 JLINK_ReadReg(FPS3)  returns 0x00000000 (0000ms, 0721ms total)
T0BD8 018:071 JLINK_ReadReg(FPS4)  returns 0x00000000 (0000ms, 0721ms total)
T0BD8 018:071 JLINK_ReadReg(FPS5)  returns 0x00000000 (0000ms, 0721ms total)
T0BD8 018:071 JLINK_ReadReg(FPS6)  returns 0x00000000 (0000ms, 0721ms total)
T0BD8 018:071 JLINK_ReadReg(FPS7)  returns 0x00000000 (0000ms, 0721ms total)
T0BD8 018:071 JLINK_ReadReg(FPS8)  returns 0x00000000 (0000ms, 0721ms total)
T0BD8 018:071 JLINK_ReadReg(FPS9)  returns 0x00000000 (0000ms, 0721ms total)
T0BD8 018:071 JLINK_ReadReg(FPS10)  returns 0x00000000 (0000ms, 0721ms total)
T0BD8 018:071 JLINK_ReadReg(FPS11)  returns 0x00000000 (0000ms, 0721ms total)
T0BD8 018:071 JLINK_ReadReg(FPS12)  returns 0x00000000 (0000ms, 0721ms total)
T0BD8 018:071 JLINK_ReadReg(FPS13)  returns 0x00000000 (0000ms, 0721ms total)
T0BD8 018:071 JLINK_ReadReg(FPS14)  returns 0x00000000 (0000ms, 0721ms total)
T0BD8 018:071 JLINK_ReadReg(FPS15)  returns 0x00000000 (0000ms, 0721ms total)
T0BD8 018:071 JLINK_ReadReg(FPS16)  returns 0x00000000 (0000ms, 0721ms total)
T0BD8 018:071 JLINK_ReadReg(FPS17)  returns 0x00000000 (0000ms, 0721ms total)
T0BD8 018:071 JLINK_ReadReg(FPS18)  returns 0x00000000 (0000ms, 0721ms total)
T0BD8 018:071 JLINK_ReadReg(FPS19)  returns 0x00000000 (0000ms, 0721ms total)
T0BD8 018:071 JLINK_ReadReg(FPS20)  returns 0x00000000 (0000ms, 0721ms total)
T0BD8 018:071 JLINK_ReadReg(FPS21)  returns 0x00000000 (0000ms, 0721ms total)
T0BD8 018:071 JLINK_ReadReg(FPS22)  returns 0x00000000 (0000ms, 0721ms total)
T0BD8 018:071 JLINK_ReadReg(FPS23)  returns 0x00000000 (0000ms, 0721ms total)
T0BD8 018:071 JLINK_ReadReg(FPS24)  returns 0x00000000 (0000ms, 0721ms total)
T0BD8 018:071 JLINK_ReadReg(FPS25)  returns 0x00000000 (0000ms, 0721ms total)
T0BD8 018:071 JLINK_ReadReg(FPS26)  returns 0x00000000 (0000ms, 0721ms total)
T0BD8 018:071 JLINK_ReadReg(FPS27)  returns 0x00000000 (0000ms, 0721ms total)
T0BD8 018:071 JLINK_ReadReg(FPS28)  returns 0x00000000 (0000ms, 0721ms total)
T0BD8 018:071 JLINK_ReadReg(FPS29)  returns 0x00000000 (0000ms, 0721ms total)
T0BD8 018:071 JLINK_ReadReg(FPS30)  returns 0x00000000 (0000ms, 0721ms total)
T0BD8 018:071 JLINK_ReadReg(FPS31)  returns 0x00000000 (0000ms, 0721ms total)
T1BA4 018:071 JLINK_ReadMem (0x2000571C, 0x0004 Bytes, ...) -- CPU_ReadMem(64 bytes @ 0x20005700) -- Updating C cache (64 bytes @ 0x20005700) -- Read from C cache (4 bytes @ 0x2000571C) - Data: FD FF FF FF  returns 0x00 (0001ms, 0722ms total)
T1BA4 018:072 JLINK_ReadMem (0x20000E98, 0x0004 Bytes, ...) -- CPU_ReadMem(64 bytes @ 0x20000E80) -- Updating C cache (64 bytes @ 0x20000E80) -- Read from C cache (4 bytes @ 0x20000E98) - Data: B4 58 00 08  returns 0x00 (0001ms, 0723ms total)
T1BA4 018:073 JLINK_ReadMem (0x20000E9C, 0x0004 Bytes, ...) -- Read from C cache (4 bytes @ 0x20000E9C) - Data: 00 00 00 61  returns 0x00 (0000ms, 0723ms total)
T1BA4 018:073 JLINK_ReadMem (0x20000E94, 0x0004 Bytes, ...) -- Read from C cache (4 bytes @ 0x20000E94) - Data: 1D 59 00 08  returns 0x00 (0000ms, 0723ms total)
T1BA4 018:073 JLINK_ReadMem (0xE000ED28, 0x0004 Bytes, ...) -- CPU_ReadMem(4 bytes @ 0xE000ED28) - Data: 00 00 00 00  returns 0x00 (0000ms, 0723ms total)
T1BA4 018:073 JLINK_ReadMem (0x20000EAC, 0x0004 Bytes, ...) -- Read from C cache (4 bytes @ 0x20000EAC) - Data: 1D 59 00 08  returns 0x00 (0000ms, 0723ms total)
T1BA4 018:073 JLINK_ReadMem (0x20000EA0, 0x0004 Bytes, ...) -- Read from C cache (4 bytes @ 0x20000EA0) - Data: 00 02 00 20  returns 0x00 (0000ms, 0723ms total)
T1BA4 018:073 JLINK_ReadMem (0x20000EA4, 0x0004 Bytes, ...) -- Read from C cache (4 bytes @ 0x20000EA4) - Data: 04 ED 00 E0  returns 0x00 (0000ms, 0723ms total)
T1BA4 018:073 JLINK_ReadMem (0x20000EA8, 0x0004 Bytes, ...) -- Read from C cache (4 bytes @ 0x20000EA8) - Data: 00 00 00 10  returns 0x00 (0000ms, 0723ms total)
T1BA4 018:073 JLINK_ReadMem (0x00000000, 0x0004 Bytes, ...) -- CPU_ReadMem(4 bytes @ 0x00000004) -- CPU_ReadMem(64 bytes @ 0x08000000) -- Updating C cache (64 bytes @ 0x08000000) -- Read from C cache (4 bytes @ 0x08000000) - Data: 40 57 00 20  returns 0x00 (0001ms, 0724ms total)
T1BA4 018:074 JLINK_ReadMemU32(0xE0001004, 0x0001 Items, ...) -- CPU_ReadMem(4 bytes @ 0xE0001004) - Data: 4F EF A2 06  returns 0x01 (0001ms, 0725ms total)
T1BA4 018:076 JLINK_ReadMem (0x20004CE0, 0x0020 Bytes, ...) -- CPU_ReadMem(64 bytes @ 0x20004CC0) -- Updating C cache (64 bytes @ 0x20004CC0) -- Read from C cache (32 bytes @ 0x20004CE0) - Data: 24 47 50 52 4D 43 2C 2C 56 2C 2C 2C 2C 2C 2C 2C ...  returns 0x00 (0001ms, 0726ms total)
T1BA4 018:077 JLINK_ReadMem (0x200001F4, 0x0004 Bytes, ...) -- CPU_ReadMem(64 bytes @ 0x200001C0) -- Updating C cache (64 bytes @ 0x200001C0) -- Read from C cache (4 bytes @ 0x200001F4) - Data: A2 00 00 00  returns 0x00 (0000ms, 0726ms total)
T1BA4 022:485 JLINK_ReadMem (0x20004D00, 0x0001 Bytes, ...) -- CPU_ReadMem(64 bytes @ 0x20004D00) -- Updating C cache (64 bytes @ 0x20004D00) -- Read from C cache (1 bytes @ 0x20004D00) - Data: 2C  returns 0x00 (0001ms, 0727ms total)
T1BA4 022:486 JLINK_ReadMem (0x20004D01, 0x0001 Bytes, ...) -- Read from C cache (1 bytes @ 0x20004D01) - Data: 2C  returns 0x00 (0000ms, 0727ms total)
T1BA4 022:487 JLINK_ReadMem (0x20004D02, 0x0001 Bytes, ...) -- Read from C cache (1 bytes @ 0x20004D02) - Data: 2C  returns 0x00 (0000ms, 0727ms total)
T1BA4 022:487 JLINK_ReadMem (0x20004D03, 0x0001 Bytes, ...) -- Read from C cache (1 bytes @ 0x20004D03) - Data: 2C  returns 0x00 (0000ms, 0727ms total)
T1BA4 022:487 JLINK_ReadMem (0x20004D04, 0x0001 Bytes, ...) -- Read from C cache (1 bytes @ 0x20004D04) - Data: 2C  returns 0x00 (0000ms, 0727ms total)
T1BA4 022:487 JLINK_ReadMem (0x20004D05, 0x0001 Bytes, ...) -- Read from C cache (1 bytes @ 0x20004D05) - Data: 2C  returns 0x00 (0000ms, 0727ms total)
T1BA4 022:487 JLINK_ReadMem (0x20004D06, 0x0001 Bytes, ...) -- Read from C cache (1 bytes @ 0x20004D06) - Data: 2C  returns 0x00 (0000ms, 0727ms total)
T1BA4 022:487 JLINK_ReadMem (0x20004D07, 0x0001 Bytes, ...) -- Read from C cache (1 bytes @ 0x20004D07) - Data: 2C  returns 0x00 (0000ms, 0727ms total)
T1BA4 022:487 JLINK_ReadMem (0x20004D08, 0x0001 Bytes, ...) -- Read from C cache (1 bytes @ 0x20004D08) - Data: 4E  returns 0x00 (0000ms, 0727ms total)
T1BA4 022:487 JLINK_ReadMem (0x20004D09, 0x0001 Bytes, ...) -- Read from C cache (1 bytes @ 0x20004D09) - Data: 2A  returns 0x00 (0000ms, 0727ms total)
T1BA4 022:487 JLINK_ReadMem (0x20004D0A, 0x0001 Bytes, ...) -- Read from C cache (1 bytes @ 0x20004D0A) - Data: 33  returns 0x00 (0000ms, 0727ms total)
T1BA4 022:487 JLINK_ReadMem (0x20004D0B, 0x0001 Bytes, ...) -- Read from C cache (1 bytes @ 0x20004D0B) - Data: 30  returns 0x00 (0000ms, 0727ms total)
T1BA4 022:487 JLINK_ReadMem (0x20004D0C, 0x0001 Bytes, ...) -- Read from C cache (1 bytes @ 0x20004D0C) - Data: 0D  returns 0x00 (0000ms, 0727ms total)
T1BA4 022:487 JLINK_ReadMem (0x20004D0D, 0x0001 Bytes, ...) -- Read from C cache (1 bytes @ 0x20004D0D) - Data: 0A  returns 0x00 (0000ms, 0727ms total)
T1BA4 022:487 JLINK_ReadMem (0x20004D0E, 0x0001 Bytes, ...) -- Read from C cache (1 bytes @ 0x20004D0E) - Data: 24  returns 0x00 (0000ms, 0727ms total)
T1BA4 022:487 JLINK_ReadMem (0x20004D0F, 0x0001 Bytes, ...) -- Read from C cache (1 bytes @ 0x20004D0F) - Data: 47  returns 0x00 (0000ms, 0727ms total)
T1BA4 022:487 JLINK_ReadMem (0x20004D10, 0x0001 Bytes, ...) -- Read from C cache (1 bytes @ 0x20004D10) - Data: 50  returns 0x00 (0000ms, 0727ms total)
T1BA4 022:487 JLINK_ReadMem (0x20004D11, 0x0001 Bytes, ...) -- Read from C cache (1 bytes @ 0x20004D11) - Data: 47  returns 0x00 (0000ms, 0727ms total)
T1BA4 022:487 JLINK_ReadMem (0x20004D12, 0x0001 Bytes, ...) -- Read from C cache (1 bytes @ 0x20004D12) - Data: 47  returns 0x00 (0000ms, 0727ms total)
T1BA4 022:487 JLINK_ReadMem (0x20004D13, 0x0001 Bytes, ...) -- Read from C cache (1 bytes @ 0x20004D13) - Data: 41  returns 0x00 (0000ms, 0727ms total)
T1BA4 022:487 JLINK_ReadMem (0x20004D14, 0x0001 Bytes, ...) -- Read from C cache (1 bytes @ 0x20004D14) - Data: 2C  returns 0x00 (0000ms, 0727ms total)
T1BA4 022:487 JLINK_ReadMem (0x20004D15, 0x0001 Bytes, ...) -- Read from C cache (1 bytes @ 0x20004D15) - Data: 2C  returns 0x00 (0000ms, 0727ms total)
T1BA4 022:487 JLINK_ReadMem (0x20004D16, 0x0001 Bytes, ...) -- Read from C cache (1 bytes @ 0x20004D16) - Data: 2C  returns 0x00 (0000ms, 0727ms total)
T1BA4 022:487 JLINK_ReadMem (0x20004D17, 0x0001 Bytes, ...) -- Read from C cache (1 bytes @ 0x20004D17) - Data: 2C  returns 0x00 (0000ms, 0727ms total)
T1BA4 022:487 JLINK_ReadMem (0x20004D18, 0x0001 Bytes, ...) -- Read from C cache (1 bytes @ 0x20004D18) - Data: 2C  returns 0x00 (0000ms, 0727ms total)
T1BA4 022:487 JLINK_ReadMem (0x20004D19, 0x0001 Bytes, ...) -- Read from C cache (1 bytes @ 0x20004D19) - Data: 2C  returns 0x00 (0000ms, 0727ms total)
T1BA4 022:487 JLINK_ReadMem (0x20004D1A, 0x0001 Bytes, ...) -- Read from C cache (1 bytes @ 0x20004D1A) - Data: 30  returns 0x00 (0000ms, 0727ms total)
T1BA4 022:487 JLINK_ReadMem (0x20004D1B, 0x0001 Bytes, ...) -- Read from C cache (1 bytes @ 0x20004D1B) - Data: 2C  returns 0x00 (0000ms, 0727ms total)
T1BA4 022:487 JLINK_ReadMem (0x20004D1C, 0x0001 Bytes, ...) -- Read from C cache (1 bytes @ 0x20004D1C) - Data: 30  returns 0x00 (0000ms, 0727ms total)
T1BA4 022:487 JLINK_ReadMem (0x20004D1D, 0x0001 Bytes, ...) -- Read from C cache (1 bytes @ 0x20004D1D) - Data: 30  returns 0x00 (0000ms, 0727ms total)
T1BA4 022:487 JLINK_ReadMem (0x20004D1E, 0x0001 Bytes, ...) -- Read from C cache (1 bytes @ 0x20004D1E) - Data: 2C  returns 0x00 (0000ms, 0727ms total)
T1BA4 022:487 JLINK_ReadMem (0x20004D1F, 0x0001 Bytes, ...) -- Read from C cache (1 bytes @ 0x20004D1F) - Data: 39  returns 0x00 (0000ms, 0727ms total)
T1BA4 022:487 JLINK_ReadMem (0x20004D20, 0x0001 Bytes, ...) -- Read from C cache (1 bytes @ 0x20004D20) - Data: 39  returns 0x00 (0001ms, 0728ms total)
T1BA4 022:488 JLINK_ReadMem (0x20004D21, 0x0001 Bytes, ...) -- Read from C cache (1 bytes @ 0x20004D21) - Data: 2E  returns 0x00 (0000ms, 0728ms total)
T1BA4 022:488 JLINK_ReadMem (0x20004D22, 0x0001 Bytes, ...) -- Read from C cache (1 bytes @ 0x20004D22) - Data: 39  returns 0x00 (0000ms, 0728ms total)
T1BA4 022:488 JLINK_ReadMem (0x20004D23, 0x0001 Bytes, ...) -- Read from C cache (1 bytes @ 0x20004D23) - Data: 39  returns 0x00 (0000ms, 0728ms total)
T1BA4 022:488 JLINK_ReadMem (0x20004D24, 0x0001 Bytes, ...) -- Read from C cache (1 bytes @ 0x20004D24) - Data: 2C  returns 0x00 (0000ms, 0728ms total)
T1BA4 022:488 JLINK_ReadMem (0x20004D25, 0x0001 Bytes, ...) -- Read from C cache (1 bytes @ 0x20004D25) - Data: 2C  returns 0x00 (0000ms, 0728ms total)
T1BA4 022:488 JLINK_ReadMem (0x20004D26, 0x0001 Bytes, ...) -- Read from C cache (1 bytes @ 0x20004D26) - Data: 2C  returns 0x00 (0000ms, 0728ms total)
T1BA4 022:488 JLINK_ReadMem (0x20004D27, 0x0001 Bytes, ...) -- Read from C cache (1 bytes @ 0x20004D27) - Data: 2C  returns 0x00 (0000ms, 0728ms total)
T1BA4 022:488 JLINK_ReadMem (0x20004D28, 0x0001 Bytes, ...) -- Read from C cache (1 bytes @ 0x20004D28) - Data: 2C  returns 0x00 (0000ms, 0728ms total)
T1BA4 022:488 JLINK_ReadMem (0x20004D29, 0x0001 Bytes, ...) -- Read from C cache (1 bytes @ 0x20004D29) - Data: 2C  returns 0x00 (0000ms, 0728ms total)
T1BA4 022:488 JLINK_ReadMem (0x20004D2A, 0x0001 Bytes, ...) -- Read from C cache (1 bytes @ 0x20004D2A) - Data: 2A  returns 0x00 (0000ms, 0728ms total)
T1BA4 022:488 JLINK_ReadMem (0x20004D2B, 0x0001 Bytes, ...) -- Read from C cache (1 bytes @ 0x20004D2B) - Data: 34  returns 0x00 (0000ms, 0728ms total)
T1BA4 022:488 JLINK_ReadMem (0x20004D2C, 0x0001 Bytes, ...) -- Read from C cache (1 bytes @ 0x20004D2C) - Data: 38  returns 0x00 (0000ms, 0728ms total)
T1BA4 022:488 JLINK_ReadMem (0x20004D2D, 0x0001 Bytes, ...) -- Read from C cache (1 bytes @ 0x20004D2D) - Data: 0D  returns 0x00 (0000ms, 0728ms total)
T1BA4 022:488 JLINK_ReadMem (0x20004D2E, 0x0001 Bytes, ...) -- Read from C cache (1 bytes @ 0x20004D2E) - Data: 0A  returns 0x00 (0000ms, 0728ms total)
T1BA4 022:488 JLINK_ReadMem (0x20004D2F, 0x0001 Bytes, ...) -- Read from C cache (1 bytes @ 0x20004D2F) - Data: 24  returns 0x00 (0000ms, 0728ms total)
T1BA4 022:488 JLINK_ReadMem (0x20004D30, 0x0001 Bytes, ...) -- Read from C cache (1 bytes @ 0x20004D30) - Data: 47  returns 0x00 (0000ms, 0728ms total)
T1BA4 022:488 JLINK_ReadMem (0x20004D31, 0x0001 Bytes, ...) -- Read from C cache (1 bytes @ 0x20004D31) - Data: 50  returns 0x00 (0000ms, 0728ms total)
T1BA4 022:488 JLINK_ReadMem (0x20004D32, 0x0001 Bytes, ...) -- Read from C cache (1 bytes @ 0x20004D32) - Data: 47  returns 0x00 (0000ms, 0728ms total)
T1BA4 022:488 JLINK_ReadMem (0x20004D33, 0x0001 Bytes, ...) -- Read from C cache (1 bytes @ 0x20004D33) - Data: 53  returns 0x00 (0000ms, 0728ms total)
T1BA4 022:488 JLINK_ReadMem (0x20004D34, 0x0001 Bytes, ...) -- Read from C cache (1 bytes @ 0x20004D34) - Data: 41  returns 0x00 (0000ms, 0728ms total)
T1BA4 022:488 JLINK_ReadMem (0x20004D35, 0x0001 Bytes, ...) -- Read from C cache (1 bytes @ 0x20004D35) - Data: 2C  returns 0x00 (0000ms, 0728ms total)
T1BA4 022:488 JLINK_ReadMem (0x20004D36, 0x0001 Bytes, ...) -- Read from C cache (1 bytes @ 0x20004D36) - Data: 41  returns 0x00 (0000ms, 0728ms total)
T1BA4 022:488 JLINK_ReadMem (0x20004D37, 0x0001 Bytes, ...) -- Read from C cache (1 bytes @ 0x20004D37) - Data: 2C  returns 0x00 (0000ms, 0728ms total)
T1BA4 022:488 JLINK_ReadMem (0x20004D38, 0x0001 Bytes, ...) -- Read from C cache (1 bytes @ 0x20004D38) - Data: 31  returns 0x00 (0000ms, 0728ms total)
T1BA4 022:488 JLINK_ReadMem (0x20004D39, 0x0001 Bytes, ...) -- Read from C cache (1 bytes @ 0x20004D39) - Data: 2C  returns 0x00 (0000ms, 0728ms total)
T1BA4 022:488 JLINK_ReadMem (0x20004D3A, 0x0001 Bytes, ...) -- Read from C cache (1 bytes @ 0x20004D3A) - Data: 2C  returns 0x00 (0000ms, 0728ms total)
T1BA4 022:488 JLINK_ReadMem (0x20004D3B, 0x0001 Bytes, ...) -- Read from C cache (1 bytes @ 0x20004D3B) - Data: 2C  returns 0x00 (0000ms, 0728ms total)
T1BA4 022:488 JLINK_ReadMem (0x20004D3C, 0x0001 Bytes, ...) -- Read from C cache (1 bytes @ 0x20004D3C) - Data: 2C  returns 0x00 (0000ms, 0728ms total)
T1BA4 022:488 JLINK_ReadMem (0x20004D3D, 0x0001 Bytes, ...) -- Read from C cache (1 bytes @ 0x20004D3D) - Data: 2C  returns 0x00 (0000ms, 0728ms total)
T1BA4 022:488 JLINK_ReadMem (0x20004D3E, 0x0001 Bytes, ...) -- Read from C cache (1 bytes @ 0x20004D3E) - Data: 2C  returns 0x00 (0000ms, 0728ms total)
T1BA4 022:489 JLINK_ReadMem (0x20004D3F, 0x0001 Bytes, ...) -- Read from C cache (1 bytes @ 0x20004D3F) - Data: 2C  returns 0x00 (0000ms, 0728ms total)
T1BA4 022:489 JLINK_ReadMem (0x20004D40, 0x0001 Bytes, ...) -- CPU_ReadMem(64 bytes @ 0x20004D40) -- Updating C cache (64 bytes @ 0x20004D40) -- Read from C cache (1 bytes @ 0x20004D40) - Data: 2C  returns 0x00 (0001ms, 0729ms total)
T1BA4 022:490 JLINK_ReadMem (0x20004D41, 0x0001 Bytes, ...) -- Read from C cache (1 bytes @ 0x20004D41) - Data: 2C  returns 0x00 (0000ms, 0729ms total)
T1BA4 022:490 JLINK_ReadMem (0x20004D42, 0x0001 Bytes, ...) -- Read from C cache (1 bytes @ 0x20004D42) - Data: 2C  returns 0x00 (0000ms, 0729ms total)
T1BA4 022:490 JLINK_ReadMem (0x20004D43, 0x0001 Bytes, ...) -- Read from C cache (1 bytes @ 0x20004D43) - Data: 2C  returns 0x00 (0000ms, 0729ms total)
T1BA4 022:490 JLINK_ReadMem (0x20004D44, 0x0001 Bytes, ...) -- Read from C cache (1 bytes @ 0x20004D44) - Data: 2C  returns 0x00 (0000ms, 0729ms total)
T1BA4 022:490 JLINK_ReadMem (0x20004D45, 0x0001 Bytes, ...) -- Read from C cache (1 bytes @ 0x20004D45) - Data: 2C  returns 0x00 (0000ms, 0729ms total)
T1BA4 022:490 JLINK_ReadMem (0x20004D46, 0x0001 Bytes, ...) -- Read from C cache (1 bytes @ 0x20004D46) - Data: 39  returns 0x00 (0000ms, 0729ms total)
T1BA4 022:490 JLINK_ReadMem (0x20004D47, 0x0001 Bytes, ...) -- Read from C cache (1 bytes @ 0x20004D47) - Data: 39  returns 0x00 (0000ms, 0729ms total)
T1BA4 022:490 JLINK_ReadMem (0x20004D48, 0x0001 Bytes, ...) -- Read from C cache (1 bytes @ 0x20004D48) - Data: 2E  returns 0x00 (0000ms, 0729ms total)
T1BA4 022:490 JLINK_ReadMem (0x20004D49, 0x0001 Bytes, ...) -- Read from C cache (1 bytes @ 0x20004D49) - Data: 39  returns 0x00 (0000ms, 0729ms total)
T1BA4 022:490 JLINK_ReadMem (0x20004D4A, 0x0001 Bytes, ...) -- Read from C cache (1 bytes @ 0x20004D4A) - Data: 39  returns 0x00 (0000ms, 0729ms total)
T1BA4 022:490 JLINK_ReadMem (0x20004D4B, 0x0001 Bytes, ...) -- Read from C cache (1 bytes @ 0x20004D4B) - Data: 2C  returns 0x00 (0000ms, 0729ms total)
T1BA4 022:490 JLINK_ReadMem (0x20004D4C, 0x0001 Bytes, ...) -- Read from C cache (1 bytes @ 0x20004D4C) - Data: 39  returns 0x00 (0000ms, 0729ms total)
T1BA4 022:490 JLINK_ReadMem (0x20004D4D, 0x0001 Bytes, ...) -- Read from C cache (1 bytes @ 0x20004D4D) - Data: 39  returns 0x00 (0000ms, 0729ms total)
T1BA4 022:490 JLINK_ReadMem (0x20004D4E, 0x0001 Bytes, ...) -- Read from C cache (1 bytes @ 0x20004D4E) - Data: 2E  returns 0x00 (0000ms, 0729ms total)
T1BA4 022:490 JLINK_ReadMem (0x20004D4F, 0x0001 Bytes, ...) -- Read from C cache (1 bytes @ 0x20004D4F) - Data: 39  returns 0x00 (0000ms, 0729ms total)
T1BA4 022:490 JLINK_ReadMem (0x20004D50, 0x0001 Bytes, ...) -- Read from C cache (1 bytes @ 0x20004D50) - Data: 39  returns 0x00 (0000ms, 0729ms total)
T1BA4 022:490 JLINK_ReadMem (0x20004D51, 0x0001 Bytes, ...) -- Read from C cache (1 bytes @ 0x20004D51) - Data: 2C  returns 0x00 (0000ms, 0729ms total)
T1BA4 022:490 JLINK_ReadMem (0x20004D52, 0x0001 Bytes, ...) -- Read from C cache (1 bytes @ 0x20004D52) - Data: 39  returns 0x00 (0000ms, 0729ms total)
T1BA4 022:490 JLINK_ReadMem (0x20004D53, 0x0001 Bytes, ...) -- Read from C cache (1 bytes @ 0x20004D53) - Data: 39  returns 0x00 (0000ms, 0729ms total)
T1BA4 022:490 JLINK_ReadMem (0x20004D54, 0x0001 Bytes, ...) -- Read from C cache (1 bytes @ 0x20004D54) - Data: 2E  returns 0x00 (0000ms, 0729ms total)
